 ****** HSPICE -- J-2014.09-SP1-2 64-BIT (Jan 29 2015) RHEL64 ******            
  Copyright (C) 2014 Synopsys, Inc. All Rights Reserved.                        
  Unpublished-rights reserved under US copyright laws.
  This program is protected by law and is subject to the
  terms and conditions of the license agreement from Synopsys.
  Use of this program is your acceptance to be bound by the
  license agreement. HSPICE is the trademark of Synopsys, Inc.
  Input File: /dev/shm/811972587.sp                                             
  Command line options: -C /dev/shm/811972587.sp -o /dev/shm/811972587
 Init: read install configuration file: /usr/synopsys/J-2014.09-SP1-2/hspice/meta.cfg

 **warning** It is recommended that you set start explicitly:
             .TRAN tstep tstop START=val


  **info** (/dev/shm/811972587.sp:11) DC voltage reset to initial transient source value              in source        0:vs1                 new dc=  0.0000D+00
  
      
 *****************************************************************
 ******  option summary
 ******
 runlvl  = 3         bypass  = 2         

 **info** rebuilding matrix with pivot option

 **info** dc convergence successful at Newton-Raphson method 
1****** HSPICE -- J-2014.09-SP1-2 64-BIT (Jan 29 2015) RHEL64 ******            
 ******  
 ﻿******************** stl ver 2.3 t element basic model ********************

 ****** operating point information tnom=  25.000 temp=  25.000 ******
 ****** operating point status is voltage   simulation time is     0.     
    node    =voltage      node    =voltage      node    =voltage      node    =voltage      node    =voltage

 +0:101     =   0.      0:102     =   0.      0:103     =   0.      0:104     =   0.      0:1001    =   0.     
 +0:1002    =   0.      0:2000    =   0.      0:2001    =   0.      0:2002    =   0.      0:2003    =   0.     
 +0:4000    =   0.      0:4001    =   0.      0:4002    =   0.      0:4003    =   0.      0:6000    =   0.     
 +0:6001    =   0.      0:6002    =   0.      0:6003    =   0.      0:optpt1  =   0.      0:optpt2  =   0.     
 +0:optpt3  =   0.      0:vspt1   =   0.      0:vspt2   =   0.      0:vspt3   =   0.     

 ******  
 ﻿******************** stl ver 2.3 t element basic model ********************

 ****** transient analysis tnom=  25.000 temp=  25.000 ******
x

        time    voltage      voltage      voltage      voltage      voltage      voltage    
                  optpt1       optpt2       optpt3        vspt1        vspt2        vspt3   
   20.00000n    419.7444m    444.1746m    115.8813m      0.         807.0000m      0.       
   20.01000n    429.9887m    446.1312m    112.4914m      0.         857.0000m      0.       
   20.02000n    440.2821m    445.1676m    109.2082m      0.         907.0000m      0.       
   20.03000n    450.4827m    438.6661m    106.1025m      0.         936.6218m      0.       
   20.04000n    460.6435m    430.1732m    103.0598m      0.         958.2188m      0.       
   20.05000n    470.8043m    421.6802m    100.0171m      0.         979.8158m      0.       
   20.06000n    480.9419m    413.0114m     96.9867m      0.           1.0000       0.       
   20.07000n    490.7464m    401.8294m     94.1333m      0.           1.0000       0.       
   20.08000n    500.5509m    390.6474m     91.2799m      0.           1.0000       0.       
   20.09000n    509.9267m    379.3325m     88.6013m      0.           1.0000       0.       
   20.10000n    519.0392m    367.9359m     86.0300m      0.           1.0000       0.       
   20.11000n    528.1517m    356.5394m     83.4588m      0.           1.0000       0.       
   20.12000n    537.2642m    345.1428m     80.8876m      0.           1.0000       0.       
   20.13000n    546.3767m    333.7463m     78.3163m      0.           1.0000       0.       
   20.14000n    555.0748m    322.8699m     75.7908m      0.           1.0000       0.       
   20.15000n    562.5388m    313.9586m     73.4313m      0.           1.0000       0.       
   20.16000n    569.6976m    305.8116m     71.1327m      0.           1.0000       0.       
   20.17000n    576.8564m    297.6646m     68.8340m      0.           1.0000       0.       
   20.18000n    581.2174m    293.3052m     66.7589m      0.           1.0000       0.       
   20.19000n    585.5292m    289.0124m     64.6877m      0.           1.0000       0.       
   20.20000n    589.8410m    284.7196m     62.6164m      0.           1.0000       0.       
   20.21000n    594.1527m    280.4269m     60.5452m      0.           1.0000       0.       
   20.22000n    598.4645m    276.1341m     58.4740m      0.           1.0000       0.       
   20.23000n    602.7762m    271.8413m     56.4028m      0.           1.0000       0.       
   20.24000n    604.5805m    270.5246m     54.4687m      0.           1.0000       0.       
   20.25000n    605.7070m    270.0124m     52.5716m      0.           1.0000       0.       
   20.26000n    606.4881m    269.8347m     50.6903m      0.           1.0000       0.       
   20.27000n    605.7519m    271.1180m     48.8908m      0.           1.0000       0.       
   20.28000n    603.9888m    273.3772m     47.1644m      0.           1.0000       0.       
   20.29000n    602.2257m    275.6365m     45.4381m      0.           1.0000       0.       
   20.30000n    599.4364m    278.9383m     43.7805m      0.           1.0000       0.       
   20.31000n    594.8152m    284.1012m     42.2457m      0.           1.0000       0.       
   20.32000n    590.1941m    289.2640m     40.7110m      0.           1.0000       0.       
   20.33000n    585.5729m    294.4269m     39.1762m      0.           1.0000       0.       
   20.34000n    580.9518m    299.5897m     37.6414m      0.           1.0000       0.       
   20.35000n    576.3306m    304.7526m     36.1066m      0.           1.0000       0.       
   20.36000n    571.0633m    310.5748m     34.6101m      0.           1.0000       0.       
   20.37000n    564.0581m    318.1705m     33.2163m      0.           1.0000       0.       
   20.38000n    556.9450m    325.8826m     31.8316m      0.           1.0000       0.       
   20.39000n    548.0374m    335.5304m     30.5976m      0.           1.0000       0.       
   20.40000n    539.1299m    345.1781m     29.3635m      0.           1.0000       0.       
   20.41000n    530.2223m    354.8258m     28.1295m      0.           1.0000       0.       
   20.42000n    521.3147m    364.4735m     26.8955m      0.           1.0000       0.       
   20.43000n    512.4072m    374.1212m     25.6614m      0.           1.0000       0.       
   20.44000n    503.4996m    383.7689m     24.4274m      0.           1.0000       0.       
   20.45000n    493.8698m    394.2862m     23.2754m      0.           1.0000       0.       
   20.46000n    483.5286m    405.5804m     22.2297m      0.           1.0000       0.       
   20.47000n    473.1873m    416.8746m     21.1839m      0.           1.0000       0.       
   20.48000n    462.8205m    428.2045m     20.1494m      0.           1.0000       0.       
   20.49000n    452.0873m    440.0456m     19.2766m      0.           1.0000       0.       
   20.50000n    441.3542m    451.8866m     18.4038m      0.           1.0000       0.       
   20.51000n    430.6210m    463.7277m     17.5310m      0.           1.0000       0.       
   20.52000n    419.8879m    475.5687m     16.6582m      0.           1.0000       0.       
   20.53000n    409.1547m    487.4098m     15.7853m      0.           1.0000       0.       
   20.54000n    398.4216m    499.2509m     14.9125m      0.           1.0000       0.       
   20.55000n    387.9751m    511.0706m     14.1516m      0.           1.0000       0.       
   20.56000n    377.6235m    522.8832m     13.4277m      0.           1.0000       0.       
   20.57000n    367.2720m    534.6958m     12.7038m      0.           1.0000       0.       
   20.58000n    356.9029m    546.4816m     12.0454m      0.           1.0000       0.       
   20.59000n    346.5220m    558.2490m     11.4315m      0.           1.0000       0.       
   20.60000n    336.1411m    570.0165m     10.8177m      0.           1.0000       0.       
   20.61000n    326.1857m    581.4350m     10.2948m      0.           1.0000       0.       
   20.62000n    316.2681m    592.8225m      9.7800m      0.           1.0000       0.       
   20.63000n    306.3505m    604.2100m      9.2652m      0.           1.0000       0.       
   20.64000n    296.8523m    615.2620m      9.6989m      0.           1.0000       0.       
   20.65000n    287.5031m    626.1948m     10.4697m      0.           1.0000       0.       
   20.66000n    278.1540m    637.1276m     11.2405m      0.           1.0000       0.       
   20.67000n    269.1133m    647.8219m     13.6772m      0.           1.0000       0.       
   20.68000n    260.3194m    658.3253m     17.4466m      0.           1.0000       0.       
   20.69000n    251.9406m    668.4396m     23.5504m      0.           1.0000       0.       
   20.70000n    243.8791m    678.2565m     31.4373m      0.           1.0000       0.       
   20.71000n    235.8176m    688.0735m     39.3243m      0.           1.0000       0.       
   20.72000n    227.7561m    697.8904m     47.2112m      0.           1.0000       0.       
   20.73000n    220.5553m    706.9391m     61.8808m      0.           1.0000       5.3204m  
   20.74000n    213.7721m    715.6152m     79.8409m      0.           1.0000      13.2219m  
   20.75000n    206.9889m    724.2913m     97.8010m      0.           1.0000      21.1235m  
   20.76000n    200.2057m    732.9674m    115.7611m      0.           1.0000      29.0250m  
   20.77000n    193.4225m    741.6435m    133.7213m      0.           1.0000      36.9266m  
   20.78000n    186.6393m    750.3195m    151.6814m      0.           1.0000      44.8281m  
   20.79000n    179.9867m    758.8980m    170.2743m      0.           1.0000      55.7881m  
   20.80000n    174.6740m    766.4753m    195.3539m      0.           1.0000      98.1031m  
   20.81000n    169.3612m    774.0526m    220.4335m      0.           1.0000     140.4181m  
   20.82000n    164.0484m    781.6299m    245.5131m      0.           1.0000     182.7331m  
   20.83000n    158.9833m    788.7774m    269.3148m      0.           1.0000     228.7677m  
   20.84000n    154.0465m    795.7501m    292.2811m      0.           1.0000     276.0000m  
   20.85000n    149.8341m    801.9973m    309.5726m      0.           1.0000     326.0000m  
   20.86000n    145.6217m    808.2445m    326.8640m      0.           1.0000     376.0000m  
   20.87000n    141.4092m    814.4917m    344.1554m      0.           1.0000     426.0000m  
   20.88000n    137.1968m    820.7389m    361.4469m      0.           1.0000     476.0000m  
   20.89000n    132.9844m    826.9861m    378.7383m      0.           1.0000     526.0000m  
   20.90000n    129.4845m    832.5019m    388.2736m      0.           1.0000     575.9286m  
   20.91000n    126.4665m    837.5229m    392.5625m      0.           1.0000     625.8090m  
   20.92000n    123.4485m    842.5438m    396.8513m      0.           1.0000     675.6894m  
   20.93000n    120.4305m    847.5648m    401.1402m      0.           1.0000     725.5697m  
   20.94000n    117.4125m    852.5858m    405.4290m      0.           1.0000     775.4501m  
   20.95000n    114.3945m    857.6068m    409.7179m      0.           1.0000     825.3305m  
   20.96000n    111.3765m    862.6277m    414.0067m      0.           1.0000     875.2108m  
   20.97000n    108.4094m    867.6019m    417.6589m      0.           1.0000     923.2316m  
   20.98000n    106.1651m    871.9111m    412.2649m      0.           1.0000     944.8286m  
   20.99000n    103.9208m    876.2203m    406.8709m      0.           1.0000     966.4256m  
   21.00000n    101.6765m    880.5295m    401.4768m      0.           1.0000     988.0226m  
   21.01000n     99.9679m    884.3676m    392.6990m      0.           1.0000     991.9295m  
   21.02000n     98.2592m    888.2057m    383.9211m      0.           1.0000     995.8363m  
   21.03000n     96.5505m    892.0439m    375.1433m      0.           1.0000     999.7431m  
   21.04000n     94.9125m    895.6307m    366.1647m      0.           1.0000       1.0000   
   21.05000n     93.4195m    898.9775m    357.2257m      0.           1.0000       1.0000   
   21.06000n     91.9265m    902.3243m    348.2867m      0.           1.0000       1.0000   
   21.07000n     90.6684m    905.4134m    340.6403m      0.           1.0000       1.0000   
   21.08000n     89.5627m    908.3351m    333.8334m      0.           1.0000       1.0000   
   21.09000n     88.4571m    911.2568m    327.0265m      0.           1.0000       1.0000   
   21.10000n     87.3514m    914.1784m    320.2197m      0.           1.0000       1.0000   
   21.11000n     86.2458m    917.1001m    313.4128m      0.           1.0000       1.0000   
   21.12000n     85.1401m    920.0218m    306.6059m      0.           1.0000       1.0000   
   21.13000n     84.0345m    922.9435m    299.7990m      0.           1.0000       1.0000   
   21.14000n     83.1850m    925.6721m    294.7524m      0.           1.0000       1.0000   
   21.15000n     82.3859m    928.3626m    290.0515m      0.           1.0000       1.0000   
   21.16000n     81.7062m    930.8421m    287.7246m      0.           1.0000       1.0000   
   21.17000n     81.0279m    933.3189m    285.4276m      0.           1.0000       1.0000   
   21.18000n     80.3497m    935.7957m    283.1306m      0.           1.0000       1.0000   
   21.19000n     79.7532m    938.1806m    282.1550m      0.           1.0000       1.0000   
   21.20000n     79.1908m    940.5273m    281.7293m      0.           1.0000       1.0000   
   21.21000n     78.7276m    942.7745m    282.6904m      0.           1.0000       1.0000   
   21.22000n     78.2640m    945.0097m    283.8149m      0.           1.0000       1.0000   
   21.23000n     77.8204m    947.1893m    286.1131m      0.           1.0000       1.0000   
   21.24000n     77.3858m    949.3578m    288.7414m      0.           1.0000       1.0000   
   21.25000n     76.9883m    951.3648m    293.3512m      0.           1.0000       1.0000   
   21.26000n     76.5992m    953.3355m    298.4071m      0.           1.0000       1.0000   
   21.27000n     76.2100m    955.3061m    303.4630m      0.           1.0000       1.0000   
   21.28000n     75.8209m    957.2768m    308.5189m      0.           1.0000       1.0000   
   21.29000n     75.4317m    959.2475m    313.5748m      0.           1.0000       1.0000   
   21.30000n     75.0426m    961.2181m    318.6307m      0.           1.0000       1.0000   
   21.31000n     74.6855m    963.0704m    325.1720m      0.           1.0000       1.0000   
   21.32000n     74.3375m    964.8892m    332.1339m      0.           1.0000       1.0000   
   21.33000n     74.0046m    966.6441m    339.9265m      0.           1.0000       1.0000   
   21.34000n     73.6727m    968.3907m    347.8228m      0.           1.0000       1.0000   
   21.35000n     73.3278m    970.0881m    356.2776m      0.           1.0000       1.0000   
   21.36000n     72.9735m    971.7033m    365.4877m      0.           1.0000       1.0000   
   21.37000n     72.6192m    973.3185m    374.6978m      0.           1.0000       1.0000   
   21.38000n     72.2649m    974.9337m    383.9079m      0.           1.0000       1.0000   
   21.39000n     71.8931m    976.4226m    394.1563m      0.           1.0000       1.0000   
   21.40000n     71.5210m    977.9090m    404.4257m      0.           1.0000       1.0000   
   21.41000n     71.1489m    979.3953m    414.6951m      0.           1.0000       1.0000   
   21.42000n     70.7768m    980.8817m    424.9646m      0.           1.0000       1.0000   
   21.43000n     70.4028m    982.3578m    435.2868m      0.           1.0000       1.0000   
   21.44000n     70.0161m    983.7649m    445.9637m      0.           1.0000       1.0000   
   21.45000n     69.6003m    985.0915m    456.8723m      0.           1.0000       1.0000   
   21.46000n     69.1729m    986.3861m    467.8733m      0.           1.0000       1.0000   
   21.47000n     68.7454m    987.6806m    478.8743m      0.           1.0000       1.0000   
   21.48000n     68.3180m    988.9751m    489.8752m      0.           1.0000       1.0000   
   21.49000n     67.8871m    990.2444m    500.8986m      0.           1.0000       1.0000   
   21.50000n     67.4409m    991.4042m    512.0188m      0.           1.0000       1.0000   
   21.51000n     66.9947m    992.5640m    523.1391m      0.           1.0000       1.0000   
   21.52000n     66.5485m    993.7238m    534.2594m      0.           1.0000       1.0000   
   21.53000n     66.1023m    994.8836m    545.3796m      0.           1.0000       1.0000   
   21.54000n     66.2391m    995.8965m    556.1524m      0.           1.0000       1.0000   
   21.55000n     66.3979m    996.9038m    566.9121m      0.           1.0000       1.0000   
   21.56000n     66.5567m    997.9112m    577.6718m      0.           1.0000       1.0000   
   21.57000n     66.7155m    998.9185m    588.4315m      0.           1.0000       1.0000   
   21.58000n     69.5558m    999.8279m    598.8747m      0.           1.0000       1.0000   
   21.59000n     73.9048m      1.0007     609.1399m      0.           1.0000       1.0000   
   21.60000n     78.2537m      1.0015     619.4051m      0.           1.0000       1.0000   
   21.61000n     83.0142m      1.0024     629.6544m    591.1664u      1.0000       1.0000   
   21.62000n    107.5660m      1.0030     639.1390m     29.6114m      1.0000       1.0000   
   21.63000n    132.1178m      1.0036     648.6236m     58.6317m      1.0000       1.0000   
   21.64000n    156.6697m      1.0043     658.1082m     87.6520m      1.0000       1.0000   
   21.65000n    181.2215m      1.0049     667.5928m    116.6723m      1.0000       1.0000   
   21.66000n    206.0248m      1.0055     677.0636m    146.0000m      1.0000       1.0000   
   21.67000n    247.7406m      1.0056     685.6084m    196.0000m      1.0000       1.0000   
   21.68000n    289.4563m      1.0057     694.1531m    246.0000m      1.0000       1.0000   
   21.69000n    331.1721m      1.0058     702.6978m    296.0000m      1.0000       1.0000   
   21.70000n    372.8879m      1.0059     711.2426m    346.0000m      1.0000       1.0000   
   21.71000n    414.6037m      1.0060     719.7873m    396.0000m      1.0000       1.0000   
   21.72000n    453.3873m      1.0057     727.8377m    446.0000m      1.0000       1.0000   
   21.73000n    491.1897m      1.0048     735.6974m    496.0000m      1.0000       1.0000   
   21.74000n    526.3899m    999.6814m    742.8736m    546.0000m      1.0000       1.0000   
   21.75000n    561.5900m    994.5352m    750.0497m    596.0000m      1.0000       1.0000   
   21.76000n    596.7902m    989.3890m    757.2258m    646.0000m      1.0000       1.0000   
   21.77000n    631.9904m    984.2428m    764.4020m    696.0000m      1.0000       1.0000   
   21.78000n    662.6192m    974.3409m    771.2020m    746.0000m      1.0000       1.0000   
   21.79000n    685.6913m    956.5775m    777.3802m    796.0000m      1.0000       1.0000   
   21.80000n    708.7635m    938.8141m    783.5584m    846.0000m      1.0000       1.0000   
   21.81000n    731.8356m    921.0506m    789.7366m    896.0000m      1.0000       1.0000   
   21.82000n    754.9077m    903.2872m    795.9148m    946.0000m      1.0000       1.0000   
   21.83000n    776.6641m    885.1823m    802.0581m    993.6802m    998.2968m      1.0000   
   21.84000n    772.7487m    860.4139m    807.5204m    996.0966m    963.3619m      1.0000   
   21.85000n    768.8332m    835.6455m    812.9826m    998.5131m    928.4269m      1.0000   
   21.86000n    761.8970m    810.0096m    818.3162m      1.0000     888.2848m      1.0000   
